T43F0 000:004.059   SEGGER J-Link V9.24a Log File
T43F0 000:004.150   DLL Compiled: Mar  5 2026 10:55:30
T43F0 000:004.155   Logging started @ 2026-08-05 14:00
T43F0 000:004.159   Process: C:\Keil_v535\UV4\UV4.exe
T43F0 000:004.168 - 4.163ms 
T43F0 000:004.175 JLINK_SetWarnOutHandler(...)
T43F0 000:004.179 - 0.005ms 
T43F0 000:004.185 JLINK_OpenEx(...)
T43F0 000:007.204   Firmware: J-Link OB-STM32F072-128KB-CortexM compiled Apr 27 2026 10:41:06
T43F0 000:008.183   Firmware: J-Link OB-STM32F072-128KB-CortexM compiled Apr 27 2026 10:41:06
T43F0 000:008.355   Decompressing FW timestamp took 128 us
T43F0 000:026.968   Hardware: V1.00
T43F0 000:026.985   S/N: 671030619
T43F0 000:026.991   OEM: SEGGER
T43F0 000:026.997   Feature(s): GDB, FlashBP, FlashDL, JFlash, RDI
T43F0 000:027.695   Bootloader: (FW returned invalid version)
T43F0 000:028.296   USB speed mode: Full speed (12 MBit/s)
T43F0 000:028.720   TELNET listener socket opened on port 19021
T43F0 000:028.856   WEBSRV WEBSRV_Init(): Starting webserver thread(s)
T43F0 000:028.989   WEBSRV Webserver running on local port 19080
T43F0 000:029.085   Looking for J-Link GUI Server exe at: C:\Keil_v535\ARM\Segger\JLinkGUIServer.exe
T43F0 000:029.172   Looking for J-Link GUI Server exe at: C:\Program Files\SEGGER\JLink\JLinkGUIServer.exe
T43F0 000:029.212   Forking J-Link GUI Server: C:\Program Files\SEGGER\JLink\JLinkGUIServer.exe
T43F0 000:049.715   J-Link GUI Server info: "J-Link GUI server V9.24a "
T43F0 000:056.895 - 52.705ms returns "O.K."
T43F0 000:056.918 JLINK_GetEmuCaps()
T43F0 000:056.926 - 0.005ms returns 0xB8EA5A33
T43F0 000:056.933 JLINK_TIF_GetAvailable(...)
T43F0 000:057.105 - 0.172ms 
T43F0 000:057.115 JLINK_SetErrorOutHandler(...)
T43F0 000:057.119 - 0.004ms 
T43F0 000:057.136 JLINK_ExecCommand("ProjectFile = "D:\RFprojects\LoRa-platform\FW_projects\test_e77\MDK_V5\JLinkSettings.ini"", ...). 
T43F0 000:068.514   Ref file found at: C:\Keil_v535\ARM\Segger\JLinkDevices.ref
T43F0 000:068.607   REF file references invalid XML file: C:\Program Files\SEGGER\JLink\JLinkDevices.xml
T43F0 000:069.624 - 12.484ms returns 0x00
T43F0 000:073.315 JLINK_ExecCommand("Device = STM32WLE5CCUx", ...). 
T43F0 000:074.156   Flash bank @ 0x08000000: SFL: Parsing sectorization info from ELF file
T43F0 000:074.171     FlashDevice.SectorInfo[0]: .SectorSize = 0x00000800, .SectorStartAddr = 0x00000000
T43F0 000:074.178   FlashBank @0x08000000: Sectorization info from SFL ELF file ignored because sectorization override from DLL / XML file is active.
T43F0 000:074.240   Flash bank @ 0x1FFF7800: SFL: Parsing sectorization info from ELF file
T43F0 000:074.246     FlashDevice.SectorInfo[0]: .SectorSize = 0x00000008, .SectorStartAddr = 0x00000000
T43F0 000:074.253   FlashBank @0x1FFF7800: Sectorization info from SFL ELF file ignored because sectorization override from DLL / XML file is active.
T43F0 000:076.823   Device "STM32WLE5CC" selected.
T43F0 000:077.109 - 3.793ms returns 0x00
T43F0 000:077.131   ERROR: Unknown command
T43F0 000:077.139 JLINK_GetHardwareVersion()
T43F0 000:077.145 - 0.004ms returns 10000
T43F0 000:077.150 JLINK_GetDLLVersion()
T43F0 000:077.154 - 0.004ms returns 92401
T43F0 000:077.159 JLINK_GetOEMString(...)
T43F0 000:077.164 JLINK_GetFirmwareString(...)
T43F0 000:077.168 - 0.004ms 
T43F0 000:081.752 JLINK_GetDLLVersion()
T43F0 000:081.766 - 0.013ms returns 92401
T43F0 000:081.771 JLINK_GetCompileDateTime()
T43F0 000:081.775 - 0.004ms 
T43F0 000:083.168 JLINK_GetFirmwareString(...)
T43F0 000:083.178 - 0.010ms 
T43F0 000:084.568 JLINK_GetHardwareVersion()
T43F0 000:084.578 - 0.009ms returns 10000
T43F0 000:088.255 JLINK_GetSN()
T43F0 000:088.275 - 0.019ms returns 671030619
T43F0 000:091.188 JLINK_GetOEMString(...)
T43F0 000:094.023 JLINK_TIF_Select(JLINKARM_TIF_SWD)
T43F0 000:095.011 - 0.987ms returns 0x00
T43F0 000:095.023 JLINK_HasError()
T43F0 000:095.036 JLINK_SetSpeed(2000)
T43F0 000:095.124 - 0.088ms 
T43F0 000:095.136 JLINK_GetId()
T43F0 000:096.788   ConfigTargetSettings() start
T43F0 000:096.802    J-Link Script File: Executing ConfigTargetSettings()
T43F0 000:098.441   J-Link script: ConfigTargetSettings()
T43F0 000:099.838   ConfigTargetSettings() end - Took 1.66ms
T43F0 000:101.210   InitTarget() start
T43F0 000:101.222    J-Link Script File: Executing InitTarget()
T43F0 000:105.139   SWD selected. Executing JTAG -> SWD switching sequence.
T43F0 000:108.862   DAP initialized successfully.
T43F0 000:122.348   InitTarget() end - Took 19.3ms
T43F0 000:124.501   Found SW-DP with ID 0x6BA02477
T43F0 000:128.846   DPIDR: 0x6BA02477
T43F0 000:130.410   CoreSight SoC-400 or earlier
T43F0 000:131.837   AP map detection skipped. Manually configured AP map found.
T43F0 000:133.243   AP[0]: AHB-AP (IDR: Not set, ADDR: 0x00000000)
T43F0 000:136.898   AP[1]: AHB-AP (IDR: Not set, ADDR: 0x00000000)
T43F0 000:139.718   AP[0]: Core found
T43F0 000:141.134   AP[0]: AHB-AP ROM base: 0xE00FF000
T43F0 000:143.352   CPUID register: 0x410FC241. Implementer code: 0x41 (ARM)
T43F0 000:144.769   Found Cortex-M4 r0p1, Little endian.
T43F0 000:145.378   -- Max. mem block: 0x00001AD8
T43F0 000:146.248   CPU_ReadMem(4 bytes @ 0xE000EDF0)
T43F0 000:146.756   CPU_ReadMem(4 bytes @ 0xE0002000)
T43F0 000:148.802   FPUnit: 6 code (BP) slots and 2 literal slots
T43F0 000:148.820   CPU_ReadMem(4 bytes @ 0xE000EDFC)
T43F0 000:149.315   CPU_WriteMem(4 bytes @ 0xE000EDFC)
T43F0 000:149.935   CPU_ReadMem(4 bytes @ 0xE0001000)
T43F0 000:150.434   CPU_WriteMem(4 bytes @ 0xE0001000)
T43F0 000:150.960   CPU_ReadMem(4 bytes @ 0xE000ED88)
T43F0 000:151.537   CPU_WriteMem(4 bytes @ 0xE000ED88)
T43F0 000:152.130   CPU_ReadMem(4 bytes @ 0xE000ED88)
T43F0 000:152.710   CPU_WriteMem(4 bytes @ 0xE000ED88)
T43F0 000:154.706   CoreSight components:
T43F0 000:156.148   ROMTbl[0] @ E00FF000
T43F0 000:156.167   CPU_ReadMem(64 bytes @ 0xE00FF000)
T43F0 000:157.298   CPU_ReadMem(32 bytes @ 0xE000EFE0)
T43F0 000:159.597   [0][0]: E000E000 CID B105E00D PID 000BB000 SCS
T43F0 000:159.613   CPU_ReadMem(32 bytes @ 0xE0001FE0)
T43F0 000:162.033   [0][1]: E0001000 CID B105E00D PID 003BB002 DWT
T43F0 000:162.049   CPU_ReadMem(32 bytes @ 0xE0002FE0)
T43F0 000:164.237   [0][2]: E0002000 CID B105E00D PID 002BB003 FPB
T43F0 000:164.252   CPU_ReadMem(32 bytes @ 0xE0000FE0)
T43F0 000:168.065   [0][3]: E0000000 CID B105E00D PID 003BB001 ITM
T43F0 000:168.088   CPU_ReadMem(32 bytes @ 0xE0040FE0)
T43F0 000:170.362   [0][4]: E0040000 CID B105900D PID 000BB9A1 TPIU
T43F0 000:170.378   CPU_ReadMem(32 bytes @ 0xE0043FE0)
T43F0 000:172.680   [0][6]: E0043000 CID B105900D PID 005BB906 CTI
T43F0 000:173.043 - 77.905ms returns 0x6BA02477
T43F0 000:173.124 JLINK_GetDLLVersion()
T43F0 000:173.135 - 0.010ms returns 92401
T43F0 000:173.140 JLINK_CORE_GetFound()
T43F0 000:173.145 - 0.004ms returns 0xE0000FF
T43F0 000:173.150 JLINK_GetDebugInfo(0x100 = JLINKARM_ROM_TABLE_ADDR_INDEX)
T43F0 000:173.155   Value=0xE00FF000
T43F0 000:173.161 - 0.011ms returns 0
T43F0 000:174.612 JLINK_GetDebugInfo(0x100 = JLINKARM_ROM_TABLE_ADDR_INDEX)
T43F0 000:174.625   Value=0xE00FF000
T43F0 000:174.632 - 0.019ms returns 0
T43F0 000:174.637 JLINK_GetDebugInfo(0x101 = JLINKARM_DEBUG_INFO_ETM_ADDR_INDEX)
T43F0 000:174.641   Value=0x00000000
T43F0 000:174.647 - 0.010ms returns 0
T43F0 000:174.656 JLINK_ReadMemEx(0xE0041FF0, 0x10 Bytes, Flags = 0x02000004)
T43F0 000:174.674   CPU_ReadMem(16 bytes @ 0xE0041FF0)
T43F0 000:175.365   Data:  00 00 00 00 00 00 00 00 00 00 00 00 00 00 00 00
T43F0 000:175.377 - 0.721ms returns 16 (0x10)
T43F0 000:175.384 JLINK_GetDebugInfo(0x102 = JLINKARM_DEBUG_INFO_MTB_ADDR_INDEX)
T43F0 000:175.388   Value=0x00000000
T43F0 000:175.394 - 0.010ms returns 0
T43F0 000:175.399 JLINK_GetDebugInfo(0x103 = JLINKARM_DEBUG_INFO_TPIU_ADDR_INDEX)
T43F0 000:175.403   Value=0xE0040000
T43F0 000:175.409 - 0.010ms returns 0
T43F0 000:175.414 JLINK_GetDebugInfo(0x104 = JLINKARM_DEBUG_INFO_ITM_ADDR_INDEX)
T43F0 000:175.418   Value=0xE0000000
T43F0 000:175.423 - 0.009ms returns 0
T43F0 000:175.428 JLINK_GetDebugInfo(0x105 = JLINKARM_DEBUG_INFO_DWT_ADDR_INDEX)
T43F0 000:175.470   Value=0xE0001000
T43F0 000:175.478 - 0.050ms returns 0
T43F0 000:175.483 JLINK_GetDebugInfo(0x106 = JLINKARM_DEBUG_INFO_FPB_ADDR_INDEX)
T43F0 000:175.487   Value=0xE0002000
T43F0 000:175.493 - 0.009ms returns 0
T43F0 000:175.497 JLINK_GetDebugInfo(0x107 = JLINKARM_DEBUG_INFO_NVIC_ADDR_INDEX)
T43F0 000:175.501   Value=0xE000E000
T43F0 000:175.507 - 0.009ms returns 0
T43F0 000:175.511 JLINK_GetDebugInfo(0x10C = JLINKARM_DEBUG_INFO_DBG_ADDR_INDEX)
T43F0 000:175.515   Value=0xE000EDF0
T43F0 000:175.521 - 0.009ms returns 0
T43F0 000:175.526 JLINK_GetDebugInfo(0x01 = Unknown)
T43F0 000:175.529   Value=0x00000001
T43F0 000:175.535 - 0.009ms returns 0
T43F0 000:175.540 JLINK_ReadMemU32(0xE000ED00, 0x1 Items)
T43F0 000:175.547   CPU_ReadMem(4 bytes @ 0xE000ED00)
T43F0 000:176.070   Data:  41 C2 0F 41
T43F0 000:176.109   Debug reg: CPUID
T43F0 000:176.115 - 0.575ms returns 1 (0x1)
T43F0 000:176.121 JLINK_GetDebugInfo(0x10F = JLINKARM_DEBUG_INFO_HAS_CORTEX_M_SECURITY_EXT_INDEX)
T43F0 000:176.126   Value=0x00000000
T43F0 000:176.131 - 0.010ms returns 0
T43F0 000:176.136 JLINK_HasError()
T43F0 000:176.141 JLINK_SetResetType(JLINKARM_CM3_RESET_TYPE_NORMAL)
T43F0 000:176.146 - 0.004ms returns JLINKARM_CM3_RESET_TYPE_NORMAL
T43F0 000:176.151 JLINK_Reset()
T43F0 000:176.160   JLINK_GetResetTypeDesc
T43F0 000:176.164   - 0.004ms 
T43F0 000:177.800   Reset type: NORMAL (https://kb.segger.com/J-Link_Reset_Strategies)
T43F0 000:177.821   CPU is running
T43F0 000:177.831   CPU_WriteMem(4 bytes @ 0xE000EDF0)
T43F0 000:178.395   CPU is running
T43F0 000:178.405   CPU_WriteMem(4 bytes @ 0xE000EDFC)
T43F0 000:180.567   Reset: Halt core after reset via DEMCR.VC_CORERESET.
T43F0 000:182.822   Reset: Reset device via AIRCR.SYSRESETREQ.
T43F0 000:182.836   CPU is running
T43F0 000:182.845   CPU_WriteMem(4 bytes @ 0xE000ED0C)
T43F0 000:237.014   CPU_ReadMem(4 bytes @ 0xE000EDF0)
T43F0 000:237.604   CPU_ReadMem(4 bytes @ 0xE000EDF0)
T43F0 000:242.808   CPU_WriteMem(4 bytes @ 0xE000EDFC)
T43F0 000:249.658   CPU_ReadMem(4 bytes @ 0xE000EDF0)
T43F0 000:254.891   CPU_WriteMem(4 bytes @ 0xE0002000)
T43F0 000:255.534   CPU_ReadMem(4 bytes @ 0xE000EDFC)
T43F0 000:256.118   CPU_ReadMem(4 bytes @ 0xE0001000)
T43F0 000:256.642 - 80.491ms 
T43F0 000:256.728 JLINK_Halt()
T43F0 000:256.740 - 0.011ms returns 0x00
T43F0 000:256.746 JLINK_ReadMemU32(0xE000EDF0, 0x1 Items)
T43F0 000:256.756   CPU_ReadMem(4 bytes @ 0xE000EDF0)
T43F0 000:257.316   Data:  03 00 03 00
T43F0 000:257.327   Debug reg: DHCSR
T43F0 000:257.334 - 0.587ms returns 1 (0x1)
T43F0 000:257.345 JLINK_WriteU32(0xE000EDF0, 0xA05F0003)
T43F0 000:257.350   Debug reg: DHCSR
T43F0 000:257.512   CPU_WriteMem(4 bytes @ 0xE000EDF0)
T43F0 000:258.129 - 0.784ms returns 0 (0x00000000)
T43F0 000:258.141 JLINK_WriteU32(0xE000EDFC, 0x01000000)
T43F0 000:258.146   Debug reg: DEMCR
T43F0 000:258.156   CPU_WriteMem(4 bytes @ 0xE000EDFC)
T43F0 000:258.719 - 0.577ms returns 0 (0x00000000)
T43F0 000:264.678 JLINK_GetHWStatus(...)
T43F0 000:264.993 - 0.314ms returns 0
T43F0 000:270.087 JLINK_GetNumBPUnits(Type = 0xFFFFFF00)
T43F0 000:270.106 - 0.019ms returns 0x06
T43F0 000:270.112 JLINK_GetNumBPUnits(Type = 0xF0)
T43F0 000:270.116 - 0.004ms returns 0x2000
T43F0 000:270.121 JLINK_GetNumWPUnits()
T43F0 000:270.125 - 0.004ms returns 4
T43F0 000:274.307 JLINK_GetSpeed()
T43F0 000:274.321 - 0.013ms returns 2000
T43F0 000:279.331 JLINK_ReadMemU32(0xE000E004, 0x1 Items)
T43F0 000:279.360   CPU_ReadMem(4 bytes @ 0xE000E004)
T43F0 000:279.831   Data:  02 00 00 00
T43F0 000:279.846 - 0.514ms returns 1 (0x1)
T43F0 000:279.853 JLINK_ReadMemU32(0xE000E004, 0x1 Items)
T43F0 000:279.861   CPU_ReadMem(4 bytes @ 0xE000E004)
T43F0 000:280.369   Data:  02 00 00 00
T43F0 000:280.404 - 0.550ms returns 1 (0x1)
T43F0 000:280.410 JLINK_WriteMemEx(0xE0001000, 0x0000001C Bytes, Flags = 0x02000004)
T43F0 000:280.415   Data:  01 00 00 00 00 00 00 00 00 00 00 00 00 00 00 00 ...
T43F0 000:280.432   CPU_WriteMem(28 bytes @ 0xE0001000)
T43F0 000:281.149 - 0.739ms returns 0x1C
T43F0 000:281.207 JLINK_Halt()
T43F0 000:281.212 - 0.004ms returns 0x00
T43F0 000:281.216 JLINK_IsHalted()
T43F0 000:281.221 - 0.004ms returns TRUE
T43F0 000:283.589 JLINK_WriteMem(0x20000000, 0x294 Bytes, ...)
T43F0 000:283.598   Data:  00 BE 0A E0 0D 78 2D 06 68 40 08 24 40 00 00 D3 ...
T43F0 000:283.766   CPU_WriteMem(660 bytes @ 0x20000000)
T43F0 000:290.238 - 6.648ms returns 0x294
T43F0 000:290.277 JLINK_HasError()
T43F0 000:290.285 JLINK_WriteReg(R0, 0x08000000)
T43F0 000:290.291 - 0.006ms returns 0
T43F0 000:290.296 JLINK_WriteReg(R1, 0x00B71B00)
T43F0 000:290.300 - 0.004ms returns 0
T43F0 000:290.304 JLINK_WriteReg(R2, 0x00000001)
T43F0 000:290.308 - 0.004ms returns 0
T43F0 000:290.313 JLINK_WriteReg(R3, 0x00000000)
T43F0 000:290.317 - 0.004ms returns 0
T43F0 000:290.321 JLINK_WriteReg(R4, 0x00000000)
T43F0 000:290.325 - 0.004ms returns 0
T43F0 000:290.330 JLINK_WriteReg(R5, 0x00000000)
T43F0 000:290.334 - 0.004ms returns 0
T43F0 000:290.338 JLINK_WriteReg(R6, 0x00000000)
T43F0 000:290.342 - 0.004ms returns 0
T43F0 000:290.347 JLINK_WriteReg(R7, 0x00000000)
T43F0 000:290.351 - 0.004ms returns 0
T43F0 000:290.355 JLINK_WriteReg(R8, 0x00000000)
T43F0 000:290.359 - 0.004ms returns 0
T43F0 000:290.364 JLINK_WriteReg(R9, 0x20000290)
T43F0 000:290.368 - 0.004ms returns 0
T43F0 000:290.373 JLINK_WriteReg(R10, 0x00000000)
T43F0 000:290.377 - 0.004ms returns 0
T43F0 000:290.381 JLINK_WriteReg(R11, 0x00000000)
T43F0 000:290.385 - 0.004ms returns 0
T43F0 000:290.390 JLINK_WriteReg(R12, 0x00000000)
T43F0 000:290.394 - 0.004ms returns 0
T43F0 000:290.398 JLINK_WriteReg(R13 (SP), 0x20008000)
T43F0 000:290.403 - 0.004ms returns 0
T43F0 000:290.407 JLINK_WriteReg(R14, 0x20000001)
T43F0 000:290.411 - 0.004ms returns 0
T43F0 000:290.421 JLINK_WriteReg(R15 (PC), 0x20000038)
T43F0 000:290.426 - 0.009ms returns 0
T43F0 000:290.431 JLINK_WriteReg(XPSR, 0x01000000)
T43F0 000:290.435 - 0.004ms returns 0
T43F0 000:290.439 JLINK_WriteReg(MSP, 0x20008000)
T43F0 000:290.443 - 0.004ms returns 0
T43F0 000:290.448 JLINK_WriteReg(PSP, 0x20008000)
T43F0 000:290.452 - 0.004ms returns 0
T43F0 000:290.456 JLINK_WriteReg(CFBP, 0x00000000)
T43F0 000:290.460 - 0.004ms returns 0
T43F0 000:290.465 JLINK_SetBPEx(Addr = 0x20000000, Type = 0xFFFFFFF2)
T43F0 000:290.474   CPU_ReadMem(4 bytes @ 0x20000000)
T43F0 000:291.043   CPU_WriteMem(4 bytes @ 0x20000000)
T43F0 000:291.707   CPU_ReadMem(4 bytes @ 0x20000000)
T43F0 000:292.163   CPU_WriteMem(4 bytes @ 0x20000000)
T43F0 000:292.696   CPU_ReadMem(2 bytes @ 0x20000000)
T43F0 000:293.205 - 2.739ms returns 0x00000001
T43F0 000:293.217 JLINK_Go()
T43F0 000:293.224   CPU_WriteMem(2 bytes @ 0x20000000)
T43F0 000:293.787   CPU_ReadMem(4 bytes @ 0xE0001000)
T43F0 000:294.344   CPU_WriteMem(4 bytes @ 0xE0002008)
T43F0 000:294.358   CPU_WriteMem(4 bytes @ 0xE000200C)
T43F0 000:294.364   CPU_WriteMem(4 bytes @ 0xE0002010)
T43F0 000:294.371   CPU_WriteMem(4 bytes @ 0xE0002014)
T43F0 000:294.377   CPU_WriteMem(4 bytes @ 0xE0002018)
T43F0 000:294.382   CPU_WriteMem(4 bytes @ 0xE000201C)
T43F0 000:296.943   CPU_WriteMem(4 bytes @ 0xE0001004)
T43F0 000:303.670   Memory map 'after startup completion point' is active
T43F0 000:303.687 - 10.468ms 
T43F0 000:303.695 JLINK_IsHalted()
T43F0 000:308.386   CPU_ReadMem(2 bytes @ 0x20000000)
T43F0 000:308.943 - 5.247ms returns TRUE
T43F0 000:308.960 JLINK_ReadReg(R15 (PC))
T43F0 000:308.966 - 0.006ms returns 0x20000000
T43F0 000:308.976 JLINK_ClrBPEx(BPHandle = 0x00000001)
T43F0 000:308.982 - 0.005ms returns 0x00
T43F0 000:309.069 JLINK_ReadReg(R0)
T43F0 000:309.081 - 0.012ms returns 0x00000000
T43F0 000:310.122 JLINK_HasError()
T43F0 000:310.134 JLINK_WriteReg(R0, 0x08000000)
T43F0 000:310.140 - 0.005ms returns 0
T43F0 000:310.145 JLINK_WriteReg(R1, 0x00000800)
T43F0 000:310.149 - 0.004ms returns 0
T43F0 000:310.153 JLINK_WriteReg(R2, 0x000000FF)
T43F0 000:310.157 - 0.004ms returns 0
T43F0 000:310.162 JLINK_WriteReg(R3, 0x00000000)
T43F0 000:310.166 - 0.004ms returns 0
T43F0 000:310.174 JLINK_WriteReg(R4, 0x00000000)
T43F0 000:310.180 - 0.005ms returns 0
T43F0 000:310.184 JLINK_WriteReg(R5, 0x00000000)
T43F0 000:310.188 - 0.003ms returns 0
T43F0 000:310.193 JLINK_WriteReg(R6, 0x00000000)
T43F0 000:310.197 - 0.004ms returns 0
T43F0 000:310.201 JLINK_WriteReg(R7, 0x00000000)
T43F0 000:310.205 - 0.004ms returns 0
T43F0 000:310.210 JLINK_WriteReg(R8, 0x00000000)
T43F0 000:310.214 - 0.004ms returns 0
T43F0 000:310.218 JLINK_WriteReg(R9, 0x20000290)
T43F0 000:310.222 - 0.004ms returns 0
T43F0 000:310.227 JLINK_WriteReg(R10, 0x00000000)
T43F0 000:310.231 - 0.004ms returns 0
T43F0 000:310.235 JLINK_WriteReg(R11, 0x00000000)
T43F0 000:310.239 - 0.004ms returns 0
T43F0 000:310.244 JLINK_WriteReg(R12, 0x00000000)
T43F0 000:310.248 - 0.004ms returns 0
T43F0 000:310.253 JLINK_WriteReg(R13 (SP), 0x20008000)
T43F0 000:310.257 - 0.004ms returns 0
T43F0 000:310.262 JLINK_WriteReg(R14, 0x20000001)
T43F0 000:310.266 - 0.004ms returns 0
T43F0 000:310.270 JLINK_WriteReg(R15 (PC), 0x20000020)
T43F0 000:310.274 - 0.004ms returns 0
T43F0 000:310.279 JLINK_WriteReg(XPSR, 0x01000000)
T43F0 000:310.283 - 0.004ms returns 0
T43F0 000:310.288 JLINK_WriteReg(MSP, 0x20008000)
T43F0 000:310.292 - 0.004ms returns 0
T43F0 000:310.296 JLINK_WriteReg(PSP, 0x20008000)
T43F0 000:310.300 - 0.004ms returns 0
T43F0 000:310.305 JLINK_WriteReg(CFBP, 0x00000000)
T43F0 000:310.309 - 0.004ms returns 0
T43F0 000:310.314 JLINK_SetBPEx(Addr = 0x20000000, Type = 0xFFFFFFF2)
T43F0 000:310.319 - 0.005ms returns 0x00000002
T43F0 000:310.323 JLINK_Go()
T43F0 000:310.335   CPU_ReadMem(4 bytes @ 0xE0001000)
T43F0 000:315.376 - 5.052ms 
T43F0 000:315.391 JLINK_IsHalted()
T43F0 000:319.966   CPU_ReadMem(2 bytes @ 0x20000000)
T43F0 000:320.557 - 5.164ms returns TRUE
T43F0 000:320.569 JLINK_ReadReg(R15 (PC))
T43F0 000:320.575 - 0.005ms returns 0x20000000
T43F0 000:320.580 JLINK_ClrBPEx(BPHandle = 0x00000002)
T43F0 000:320.585 - 0.004ms returns 0x00
T43F0 000:320.589 JLINK_ReadReg(R0)
T43F0 000:320.594 - 0.004ms returns 0x00000001
T43F0 000:320.599 JLINK_HasError()
T43F0 000:320.604 JLINK_WriteReg(R0, 0x08000000)
T43F0 000:320.609 - 0.004ms returns 0
T43F0 000:320.613 JLINK_WriteReg(R1, 0x00000800)
T43F0 000:320.620 - 0.004ms returns 0
T43F0 000:320.625 JLINK_WriteReg(R2, 0x000000FF)
T43F0 000:320.629 - 0.004ms returns 0
T43F0 000:320.634 JLINK_WriteReg(R3, 0x00000000)
T43F0 000:320.638 - 0.004ms returns 0
T43F0 000:320.642 JLINK_WriteReg(R4, 0x00000000)
T43F0 000:320.646 - 0.003ms returns 0
T43F0 000:320.651 JLINK_WriteReg(R5, 0x00000000)
T43F0 000:320.655 - 0.004ms returns 0
T43F0 000:320.659 JLINK_WriteReg(R6, 0x00000000)
T43F0 000:320.663 - 0.003ms returns 0
T43F0 000:320.668 JLINK_WriteReg(R7, 0x00000000)
T43F0 000:320.672 - 0.003ms returns 0
T43F0 000:320.676 JLINK_WriteReg(R8, 0x00000000)
T43F0 000:320.680 - 0.004ms returns 0
T43F0 000:320.685 JLINK_WriteReg(R9, 0x20000290)
T43F0 000:320.689 - 0.004ms returns 0
T43F0 000:320.693 JLINK_WriteReg(R10, 0x00000000)
T43F0 000:320.697 - 0.004ms returns 0
T43F0 000:320.702 JLINK_WriteReg(R11, 0x00000000)
T43F0 000:320.706 - 0.003ms returns 0
T43F0 000:320.710 JLINK_WriteReg(R12, 0x00000000)
T43F0 000:320.714 - 0.004ms returns 0
T43F0 000:320.719 JLINK_WriteReg(R13 (SP), 0x20008000)
T43F0 000:320.723 - 0.004ms returns 0
T43F0 000:320.728 JLINK_WriteReg(R14, 0x20000001)
T43F0 000:320.732 - 0.004ms returns 0
T43F0 000:320.736 JLINK_WriteReg(R15 (PC), 0x200000B8)
T43F0 000:320.740 - 0.004ms returns 0
T43F0 000:320.745 JLINK_WriteReg(XPSR, 0x01000000)
T43F0 000:320.749 - 0.004ms returns 0
T43F0 000:320.754 JLINK_WriteReg(MSP, 0x20008000)
T43F0 000:320.758 - 0.003ms returns 0
T43F0 000:320.762 JLINK_WriteReg(PSP, 0x20008000)
T43F0 000:320.766 - 0.004ms returns 0
T43F0 000:320.771 JLINK_WriteReg(CFBP, 0x00000000)
T43F0 000:320.775 - 0.004ms returns 0
T43F0 000:320.780 JLINK_SetBPEx(Addr = 0x20000000, Type = 0xFFFFFFF2)
T43F0 000:320.784 - 0.004ms returns 0x00000003
T43F0 000:320.789 JLINK_Go()
T43F0 000:320.799   CPU_ReadMem(4 bytes @ 0xE0001000)
T43F0 000:325.708 - 4.918ms 
T43F0 000:325.720 JLINK_IsHalted()
T43F0 000:326.299 - 0.578ms returns FALSE
T43F0 000:326.310 JLINK_HasError()
T43F0 000:336.639 JLINK_IsHalted()
T43F0 000:337.198 - 0.558ms returns FALSE
T43F0 000:337.213 JLINK_HasError()
T43F0 000:340.698 JLINK_IsHalted()
T43F0 000:341.236 - 0.537ms returns FALSE
T43F0 000:341.248 JLINK_HasError()
T43F0 000:342.683 JLINK_IsHalted()
T43F0 000:343.210 - 0.526ms returns FALSE
T43F0 000:343.222 JLINK_HasError()
T43F0 000:344.760 JLINK_IsHalted()
T43F0 000:345.285 - 0.525ms returns FALSE
T43F0 000:345.297 JLINK_HasError()
T43F0 000:347.771 JLINK_IsHalted()
T43F0 000:352.567   CPU_ReadMem(2 bytes @ 0x20000000)
T43F0 000:353.104 - 5.332ms returns TRUE
T43F0 000:353.116 JLINK_ReadReg(R15 (PC))
T43F0 000:353.121 - 0.005ms returns 0x20000000
T43F0 000:353.126 JLINK_ClrBPEx(BPHandle = 0x00000003)
T43F0 000:353.131 - 0.005ms returns 0x00
T43F0 000:353.136 JLINK_ReadReg(R0)
T43F0 000:353.140 - 0.004ms returns 0x00000000
T43F0 000:353.577 JLINK_HasError()
T43F0 000:353.589 JLINK_WriteReg(R0, 0x08000800)
T43F0 000:353.595 - 0.005ms returns 0
T43F0 000:353.600 JLINK_WriteReg(R1, 0x00000800)
T43F0 000:353.604 - 0.004ms returns 0
T43F0 000:353.608 JLINK_WriteReg(R2, 0x000000FF)
T43F0 000:353.612 - 0.004ms returns 0
T43F0 000:353.617 JLINK_WriteReg(R3, 0x00000000)
T43F0 000:353.621 - 0.004ms returns 0
T43F0 000:353.626 JLINK_WriteReg(R4, 0x00000000)
T43F0 000:353.629 - 0.004ms returns 0
T43F0 000:353.634 JLINK_WriteReg(R5, 0x00000000)
T43F0 000:353.638 - 0.003ms returns 0
T43F0 000:353.645 JLINK_WriteReg(R6, 0x00000000)
T43F0 000:353.649 - 0.004ms returns 0
T43F0 000:353.654 JLINK_WriteReg(R7, 0x00000000)
T43F0 000:353.658 - 0.004ms returns 0
T43F0 000:353.663 JLINK_WriteReg(R8, 0x00000000)
T43F0 000:353.667 - 0.004ms returns 0
T43F0 000:353.671 JLINK_WriteReg(R9, 0x20000290)
T43F0 000:353.675 - 0.004ms returns 0
T43F0 000:353.680 JLINK_WriteReg(R10, 0x00000000)
T43F0 000:353.684 - 0.004ms returns 0
T43F0 000:353.688 JLINK_WriteReg(R11, 0x00000000)
T43F0 000:353.692 - 0.003ms returns 0
T43F0 000:353.697 JLINK_WriteReg(R12, 0x00000000)
T43F0 000:353.701 - 0.004ms returns 0
T43F0 000:353.706 JLINK_WriteReg(R13 (SP), 0x20008000)
T43F0 000:353.710 - 0.004ms returns 0
T43F0 000:353.715 JLINK_WriteReg(R14, 0x20000001)
T43F0 000:353.719 - 0.004ms returns 0
T43F0 000:353.723 JLINK_WriteReg(R15 (PC), 0x20000020)
T43F0 000:353.727 - 0.004ms returns 0
T43F0 000:353.732 JLINK_WriteReg(XPSR, 0x01000000)
T43F0 000:353.736 - 0.004ms returns 0
T43F0 000:353.741 JLINK_WriteReg(MSP, 0x20008000)
T43F0 000:353.745 - 0.004ms returns 0
T43F0 000:353.749 JLINK_WriteReg(PSP, 0x20008000)
T43F0 000:353.753 - 0.004ms returns 0
T43F0 000:353.757 JLINK_WriteReg(CFBP, 0x00000000)
T43F0 000:353.761 - 0.004ms returns 0
T43F0 000:353.767 JLINK_SetBPEx(Addr = 0x20000000, Type = 0xFFFFFFF2)
T43F0 000:353.772 - 0.005ms returns 0x00000004
T43F0 000:353.776 JLINK_Go()
T43F0 000:353.788   CPU_ReadMem(4 bytes @ 0xE0001000)
T43F0 000:358.797 - 5.019ms 
T43F0 000:358.815 JLINK_IsHalted()
T43F0 000:363.445   CPU_ReadMem(2 bytes @ 0x20000000)
T43F0 000:364.019 - 5.202ms returns TRUE
T43F0 000:364.034 JLINK_ReadReg(R15 (PC))
T43F0 000:364.040 - 0.005ms returns 0x20000000
T43F0 000:364.047 JLINK_ClrBPEx(BPHandle = 0x00000004)
T43F0 000:364.051 - 0.004ms returns 0x00
T43F0 000:364.058 JLINK_ReadReg(R0)
T43F0 000:364.062 - 0.004ms returns 0x00000001
T43F0 000:364.069 JLINK_HasError()
T43F0 000:364.137 JLINK_WriteReg(R0, 0x08000800)
T43F0 000:364.148 - 0.011ms returns 0
T43F0 000:364.153 JLINK_WriteReg(R1, 0x00000800)
T43F0 000:364.158 - 0.004ms returns 0
T43F0 000:364.162 JLINK_WriteReg(R2, 0x000000FF)
T43F0 000:364.166 - 0.004ms returns 0
T43F0 000:364.171 JLINK_WriteReg(R3, 0x00000000)
T43F0 000:364.175 - 0.004ms returns 0
T43F0 000:364.179 JLINK_WriteReg(R4, 0x00000000)
T43F0 000:364.183 - 0.004ms returns 0
T43F0 000:364.188 JLINK_WriteReg(R5, 0x00000000)
T43F0 000:364.192 - 0.003ms returns 0
T43F0 000:364.199 JLINK_WriteReg(R6, 0x00000000)
T43F0 000:364.206 - 0.006ms returns 0
T43F0 000:364.211 JLINK_WriteReg(R7, 0x00000000)
T43F0 000:364.215 - 0.003ms returns 0
T43F0 000:364.219 JLINK_WriteReg(R8, 0x00000000)
T43F0 000:364.223 - 0.004ms returns 0
T43F0 000:364.228 JLINK_WriteReg(R9, 0x20000290)
T43F0 000:364.232 - 0.004ms returns 0
T43F0 000:364.236 JLINK_WriteReg(R10, 0x00000000)
T43F0 000:364.240 - 0.004ms returns 0
T43F0 000:364.245 JLINK_WriteReg(R11, 0x00000000)
T43F0 000:364.249 - 0.003ms returns 0
T43F0 000:364.253 JLINK_WriteReg(R12, 0x00000000)
T43F0 000:364.257 - 0.003ms returns 0
T43F0 000:364.262 JLINK_WriteReg(R13 (SP), 0x20008000)
T43F0 000:364.266 - 0.004ms returns 0
T43F0 000:364.271 JLINK_WriteReg(R14, 0x20000001)
T43F0 000:364.275 - 0.004ms returns 0
T43F0 000:364.279 JLINK_WriteReg(R15 (PC), 0x200000B8)
T43F0 000:364.283 - 0.004ms returns 0
T43F0 000:364.288 JLINK_WriteReg(XPSR, 0x01000000)
T43F0 000:364.292 - 0.004ms returns 0
T43F0 000:364.297 JLINK_WriteReg(MSP, 0x20008000)
T43F0 000:364.301 - 0.004ms returns 0
T43F0 000:364.305 JLINK_WriteReg(PSP, 0x20008000)
T43F0 000:364.309 - 0.003ms returns 0
T43F0 000:364.314 JLINK_WriteReg(CFBP, 0x00000000)
T43F0 000:364.318 - 0.004ms returns 0
T43F0 000:364.323 JLINK_SetBPEx(Addr = 0x20000000, Type = 0xFFFFFFF2)
T43F0 000:364.328 - 0.005ms returns 0x00000005
T43F0 000:364.333 JLINK_Go()
T43F0 000:364.345   CPU_ReadMem(4 bytes @ 0xE0001000)
T43F0 000:369.273 - 4.939ms 
T43F0 000:369.287 JLINK_IsHalted()
T43F0 000:369.785 - 0.497ms returns FALSE
T43F0 000:369.797 JLINK_HasError()
T43F0 000:373.738 JLINK_IsHalted()
T43F0 000:374.399 - 0.660ms returns FALSE
T43F0 000:374.411 JLINK_HasError()
T43F0 000:375.744 JLINK_IsHalted()
T43F0 000:376.366 - 0.622ms returns FALSE
T43F0 000:376.378 JLINK_HasError()
T43F0 000:377.730 JLINK_IsHalted()
T43F0 000:378.302 - 0.571ms returns FALSE
T43F0 000:378.313 JLINK_HasError()
T43F0 000:380.739 JLINK_IsHalted()
T43F0 000:381.334 - 0.594ms returns FALSE
T43F0 000:381.345 JLINK_HasError()
T43F0 000:382.741 JLINK_IsHalted()
T43F0 000:383.355 - 0.613ms returns FALSE
T43F0 000:383.367 JLINK_HasError()
T43F0 000:384.738 JLINK_IsHalted()
T43F0 000:385.160 - 0.421ms returns FALSE
T43F0 000:385.172 JLINK_HasError()
T43F0 000:387.730 JLINK_IsHalted()
T43F0 000:388.253 - 0.522ms returns FALSE
T43F0 000:388.265 JLINK_HasError()
T43F0 000:389.735 JLINK_IsHalted()
T43F0 000:390.295 - 0.558ms returns FALSE
T43F0 000:390.306 JLINK_HasError()
T43F0 000:391.736 JLINK_IsHalted()
T43F0 000:396.441   CPU_ReadMem(2 bytes @ 0x20000000)
T43F0 000:396.941 - 5.205ms returns TRUE
T43F0 000:396.954 JLINK_ReadReg(R15 (PC))
T43F0 000:396.959 - 0.005ms returns 0x20000000
T43F0 000:396.964 JLINK_ClrBPEx(BPHandle = 0x00000005)
T43F0 000:396.969 - 0.004ms returns 0x00
T43F0 000:396.973 JLINK_ReadReg(R0)
T43F0 000:396.978 - 0.004ms returns 0x00000000
T43F0 000:397.375 JLINK_HasError()
T43F0 000:397.385 JLINK_WriteReg(R0, 0x08001000)
T43F0 000:397.390 - 0.005ms returns 0
T43F0 000:397.395 JLINK_WriteReg(R1, 0x00000800)
T43F0 000:397.399 - 0.004ms returns 0
T43F0 000:397.404 JLINK_WriteReg(R2, 0x000000FF)
T43F0 000:397.408 - 0.004ms returns 0
T43F0 000:397.413 JLINK_WriteReg(R3, 0x00000000)
T43F0 000:397.417 - 0.004ms returns 0
T43F0 000:397.421 JLINK_WriteReg(R4, 0x00000000)
T43F0 000:397.425 - 0.003ms returns 0
T43F0 000:397.430 JLINK_WriteReg(R5, 0x00000000)
T43F0 000:397.434 - 0.004ms returns 0
T43F0 000:397.438 JLINK_WriteReg(R6, 0x00000000)
T43F0 000:397.442 - 0.004ms returns 0
T43F0 000:397.447 JLINK_WriteReg(R7, 0x00000000)
T43F0 000:397.451 - 0.003ms returns 0
T43F0 000:397.455 JLINK_WriteReg(R8, 0x00000000)
T43F0 000:397.459 - 0.004ms returns 0
T43F0 000:397.464 JLINK_WriteReg(R9, 0x20000290)
T43F0 000:397.468 - 0.004ms returns 0
T43F0 000:397.472 JLINK_WriteReg(R10, 0x00000000)
T43F0 000:397.476 - 0.004ms returns 0
T43F0 000:397.481 JLINK_WriteReg(R11, 0x00000000)
T43F0 000:397.485 - 0.004ms returns 0
T43F0 000:397.489 JLINK_WriteReg(R12, 0x00000000)
T43F0 000:397.497 - 0.007ms returns 0
T43F0 000:397.503 JLINK_WriteReg(R13 (SP), 0x20008000)
T43F0 000:397.508 - 0.004ms returns 0
T43F0 000:397.512 JLINK_WriteReg(R14, 0x20000001)
T43F0 000:397.516 - 0.004ms returns 0
T43F0 000:397.521 JLINK_WriteReg(R15 (PC), 0x20000020)
T43F0 000:397.525 - 0.004ms returns 0
T43F0 000:397.530 JLINK_WriteReg(XPSR, 0x01000000)
T43F0 000:397.534 - 0.004ms returns 0
T43F0 000:397.538 JLINK_WriteReg(MSP, 0x20008000)
T43F0 000:397.542 - 0.004ms returns 0
T43F0 000:397.547 JLINK_WriteReg(PSP, 0x20008000)
T43F0 000:397.551 - 0.004ms returns 0
T43F0 000:397.555 JLINK_WriteReg(CFBP, 0x00000000)
T43F0 000:397.559 - 0.003ms returns 0
T43F0 000:397.564 JLINK_SetBPEx(Addr = 0x20000000, Type = 0xFFFFFFF2)
T43F0 000:397.569 - 0.004ms returns 0x00000006
T43F0 000:397.574 JLINK_Go()
T43F0 000:397.585   CPU_ReadMem(4 bytes @ 0xE0001000)
T43F0 000:402.484 - 4.909ms 
T43F0 000:402.496 JLINK_IsHalted()
T43F0 000:407.096   CPU_ReadMem(2 bytes @ 0x20000000)
T43F0 000:407.663 - 5.166ms returns TRUE
T43F0 000:407.677 JLINK_ReadReg(R15 (PC))
T43F0 000:407.683 - 0.005ms returns 0x20000000
T43F0 000:407.688 JLINK_ClrBPEx(BPHandle = 0x00000006)
T43F0 000:407.693 - 0.004ms returns 0x00
T43F0 000:407.698 JLINK_ReadReg(R0)
T43F0 000:407.703 - 0.004ms returns 0x00000001
T43F0 000:407.708 JLINK_HasError()
T43F0 000:407.714 JLINK_WriteReg(R0, 0x08001000)
T43F0 000:407.719 - 0.005ms returns 0
T43F0 000:407.724 JLINK_WriteReg(R1, 0x00000800)
T43F0 000:407.728 - 0.004ms returns 0
T43F0 000:407.733 JLINK_WriteReg(R2, 0x000000FF)
T43F0 000:407.738 - 0.004ms returns 0
T43F0 000:407.743 JLINK_WriteReg(R3, 0x00000000)
T43F0 000:407.747 - 0.004ms returns 0
T43F0 000:407.752 JLINK_WriteReg(R4, 0x00000000)
T43F0 000:407.756 - 0.004ms returns 0
T43F0 000:407.761 JLINK_WriteReg(R5, 0x00000000)
T43F0 000:407.766 - 0.004ms returns 0
T43F0 000:407.771 JLINK_WriteReg(R6, 0x00000000)
T43F0 000:407.775 - 0.004ms returns 0
T43F0 000:407.780 JLINK_WriteReg(R7, 0x00000000)
T43F0 000:407.784 - 0.004ms returns 0
T43F0 000:407.789 JLINK_WriteReg(R8, 0x00000000)
T43F0 000:407.793 - 0.004ms returns 0
T43F0 000:407.798 JLINK_WriteReg(R9, 0x20000290)
T43F0 000:407.803 - 0.004ms returns 0
T43F0 000:407.807 JLINK_WriteReg(R10, 0x00000000)
T43F0 000:407.812 - 0.004ms returns 0
T43F0 000:407.817 JLINK_WriteReg(R11, 0x00000000)
T43F0 000:407.821 - 0.004ms returns 0
T43F0 000:407.826 JLINK_WriteReg(R12, 0x00000000)
T43F0 000:407.830 - 0.004ms returns 0
T43F0 000:407.835 JLINK_WriteReg(R13 (SP), 0x20008000)
T43F0 000:407.840 - 0.004ms returns 0
T43F0 000:407.845 JLINK_WriteReg(R14, 0x20000001)
T43F0 000:407.849 - 0.004ms returns 0
T43F0 000:407.854 JLINK_WriteReg(R15 (PC), 0x200000B8)
T43F0 000:407.859 - 0.004ms returns 0
T43F0 000:407.864 JLINK_WriteReg(XPSR, 0x01000000)
T43F0 000:407.868 - 0.004ms returns 0
T43F0 000:407.873 JLINK_WriteReg(MSP, 0x20008000)
T43F0 000:407.877 - 0.004ms returns 0
T43F0 000:407.882 JLINK_WriteReg(PSP, 0x20008000)
T43F0 000:407.886 - 0.004ms returns 0
T43F0 000:407.891 JLINK_WriteReg(CFBP, 0x00000000)
T43F0 000:407.896 - 0.004ms returns 0
T43F0 000:407.901 JLINK_SetBPEx(Addr = 0x20000000, Type = 0xFFFFFFF2)
T43F0 000:407.906 - 0.005ms returns 0x00000007
T43F0 000:407.911 JLINK_Go()
T43F0 000:407.922   CPU_ReadMem(4 bytes @ 0xE0001000)
T43F0 000:413.074 - 5.162ms 
T43F0 000:413.088 JLINK_IsHalted()
T43F0 000:413.691 - 0.602ms returns FALSE
T43F0 000:413.709 JLINK_HasError()
T43F0 000:420.730 JLINK_IsHalted()
T43F0 000:421.254 - 0.523ms returns FALSE
T43F0 000:421.266 JLINK_HasError()
T43F0 000:422.652 JLINK_IsHalted()
T43F0 000:423.238 - 0.586ms returns FALSE
T43F0 000:423.250 JLINK_HasError()
T43F0 000:424.742 JLINK_IsHalted()
T43F0 000:425.259 - 0.516ms returns FALSE
T43F0 000:425.270 JLINK_HasError()
T43F0 000:427.735 JLINK_IsHalted()
T43F0 000:428.296 - 0.560ms returns FALSE
T43F0 000:428.308 JLINK_HasError()
T43F0 000:429.735 JLINK_IsHalted()
T43F0 000:430.332 - 0.595ms returns FALSE
T43F0 000:430.343 JLINK_HasError()
T43F0 000:431.669 JLINK_IsHalted()
T43F0 000:432.291 - 0.623ms returns FALSE
T43F0 000:432.303 JLINK_HasError()
T43F0 000:433.751 JLINK_IsHalted()
T43F0 000:434.324 - 0.572ms returns FALSE
T43F0 000:434.336 JLINK_HasError()
T43F0 000:435.736 JLINK_IsHalted()
T43F0 000:440.498   CPU_ReadMem(2 bytes @ 0x20000000)
T43F0 000:441.055 - 5.318ms returns TRUE
T43F0 000:441.070 JLINK_ReadReg(R15 (PC))
T43F0 000:441.076 - 0.005ms returns 0x20000000
T43F0 000:441.083 JLINK_ClrBPEx(BPHandle = 0x00000007)
T43F0 000:441.087 - 0.004ms returns 0x00
T43F0 000:441.094 JLINK_ReadReg(R0)
T43F0 000:441.098 - 0.004ms returns 0x00000000
T43F0 000:441.492 JLINK_HasError()
T43F0 000:441.502 JLINK_WriteReg(R0, 0x08001800)
T43F0 000:441.507 - 0.005ms returns 0
T43F0 000:441.512 JLINK_WriteReg(R1, 0x00000800)
T43F0 000:441.516 - 0.004ms returns 0
T43F0 000:441.521 JLINK_WriteReg(R2, 0x000000FF)
T43F0 000:441.525 - 0.004ms returns 0
T43F0 000:441.529 JLINK_WriteReg(R3, 0x00000000)
T43F0 000:441.533 - 0.004ms returns 0
T43F0 000:441.538 JLINK_WriteReg(R4, 0x00000000)
T43F0 000:441.542 - 0.004ms returns 0
T43F0 000:441.546 JLINK_WriteReg(R5, 0x00000000)
T43F0 000:441.550 - 0.004ms returns 0
T43F0 000:441.555 JLINK_WriteReg(R6, 0x00000000)
T43F0 000:441.559 - 0.004ms returns 0
T43F0 000:441.563 JLINK_WriteReg(R7, 0x00000000)
T43F0 000:441.567 - 0.004ms returns 0
T43F0 000:441.572 JLINK_WriteReg(R8, 0x00000000)
T43F0 000:441.576 - 0.004ms returns 0
T43F0 000:441.581 JLINK_WriteReg(R9, 0x20000290)
T43F0 000:441.585 - 0.004ms returns 0
T43F0 000:441.589 JLINK_WriteReg(R10, 0x00000000)
T43F0 000:441.593 - 0.004ms returns 0
T43F0 000:441.598 JLINK_WriteReg(R11, 0x00000000)
T43F0 000:441.602 - 0.004ms returns 0
T43F0 000:441.606 JLINK_WriteReg(R12, 0x00000000)
T43F0 000:441.610 - 0.004ms returns 0
T43F0 000:441.615 JLINK_WriteReg(R13 (SP), 0x20008000)
T43F0 000:441.622 - 0.007ms returns 0
T43F0 000:441.627 JLINK_WriteReg(R14, 0x20000001)
T43F0 000:441.631 - 0.004ms returns 0
T43F0 000:441.636 JLINK_WriteReg(R15 (PC), 0x20000020)
T43F0 000:441.640 - 0.004ms returns 0
T43F0 000:441.645 JLINK_WriteReg(XPSR, 0x01000000)
T43F0 000:441.649 - 0.004ms returns 0
T43F0 000:441.653 JLINK_WriteReg(MSP, 0x20008000)
T43F0 000:441.657 - 0.004ms returns 0
T43F0 000:441.662 JLINK_WriteReg(PSP, 0x20008000)
T43F0 000:441.666 - 0.004ms returns 0
T43F0 000:441.670 JLINK_WriteReg(CFBP, 0x00000000)
T43F0 000:441.674 - 0.004ms returns 0
T43F0 000:441.679 JLINK_SetBPEx(Addr = 0x20000000, Type = 0xFFFFFFF2)
T43F0 000:441.684 - 0.005ms returns 0x00000008
T43F0 000:441.689 JLINK_Go()
T43F0 000:441.700   CPU_ReadMem(4 bytes @ 0xE0001000)
T43F0 000:446.633 - 4.944ms 
T43F0 000:446.646 JLINK_IsHalted()
T43F0 000:451.248   CPU_ReadMem(2 bytes @ 0x20000000)
T43F0 000:451.857 - 5.210ms returns TRUE
T43F0 000:451.871 JLINK_ReadReg(R15 (PC))
T43F0 000:451.877 - 0.005ms returns 0x20000000
T43F0 000:451.882 JLINK_ClrBPEx(BPHandle = 0x00000008)
T43F0 000:451.887 - 0.005ms returns 0x00
T43F0 000:451.892 JLINK_ReadReg(R0)
T43F0 000:451.897 - 0.004ms returns 0x00000001
T43F0 000:451.902 JLINK_HasError()
T43F0 000:451.908 JLINK_WriteReg(R0, 0x08001800)
T43F0 000:451.913 - 0.004ms returns 0
T43F0 000:451.918 JLINK_WriteReg(R1, 0x00000800)
T43F0 000:451.922 - 0.004ms returns 0
T43F0 000:451.927 JLINK_WriteReg(R2, 0x000000FF)
T43F0 000:451.932 - 0.004ms returns 0
T43F0 000:451.937 JLINK_WriteReg(R3, 0x00000000)
T43F0 000:451.941 - 0.004ms returns 0
T43F0 000:451.946 JLINK_WriteReg(R4, 0x00000000)
T43F0 000:451.950 - 0.004ms returns 0
T43F0 000:451.955 JLINK_WriteReg(R5, 0x00000000)
T43F0 000:451.959 - 0.004ms returns 0
T43F0 000:451.964 JLINK_WriteReg(R6, 0x00000000)
T43F0 000:451.969 - 0.004ms returns 0
T43F0 000:451.973 JLINK_WriteReg(R7, 0x00000000)
T43F0 000:451.978 - 0.004ms returns 0
T43F0 000:451.983 JLINK_WriteReg(R8, 0x00000000)
T43F0 000:451.987 - 0.004ms returns 0
T43F0 000:451.992 JLINK_WriteReg(R9, 0x20000290)
T43F0 000:451.996 - 0.004ms returns 0
T43F0 000:452.001 JLINK_WriteReg(R10, 0x00000000)
T43F0 000:452.005 - 0.004ms returns 0
T43F0 000:452.016 JLINK_WriteReg(R11, 0x00000000)
T43F0 000:452.020 - 0.004ms returns 0
T43F0 000:452.025 JLINK_WriteReg(R12, 0x00000000)
T43F0 000:452.029 - 0.004ms returns 0
T43F0 000:452.034 JLINK_WriteReg(R13 (SP), 0x20008000)
T43F0 000:452.039 - 0.004ms returns 0
T43F0 000:452.044 JLINK_WriteReg(R14, 0x20000001)
T43F0 000:452.049 - 0.004ms returns 0
T43F0 000:452.054 JLINK_WriteReg(R15 (PC), 0x200000B8)
T43F0 000:452.058 - 0.004ms returns 0
T43F0 000:452.063 JLINK_WriteReg(XPSR, 0x01000000)
T43F0 000:452.067 - 0.004ms returns 0
T43F0 000:452.072 JLINK_WriteReg(MSP, 0x20008000)
T43F0 000:452.077 - 0.004ms returns 0
T43F0 000:452.082 JLINK_WriteReg(PSP, 0x20008000)
T43F0 000:452.086 - 0.004ms returns 0
T43F0 000:452.091 JLINK_WriteReg(CFBP, 0x00000000)
T43F0 000:452.095 - 0.004ms returns 0
T43F0 000:452.101 JLINK_SetBPEx(Addr = 0x20000000, Type = 0xFFFFFFF2)
T43F0 000:452.106 - 0.005ms returns 0x00000009
T43F0 000:452.111 JLINK_Go()
T43F0 000:452.122   CPU_ReadMem(4 bytes @ 0xE0001000)
T43F0 000:457.125 - 5.013ms 
T43F0 000:457.139 JLINK_IsHalted()
T43F0 000:457.623 - 0.483ms returns FALSE
T43F0 000:457.636 JLINK_HasError()
T43F0 000:458.751 JLINK_IsHalted()
T43F0 000:459.436 - 0.684ms returns FALSE
T43F0 000:459.448 JLINK_HasError()
T43F0 000:460.773 JLINK_IsHalted()
T43F0 000:461.413 - 0.639ms returns FALSE
T43F0 000:461.427 JLINK_HasError()
T43F0 000:462.733 JLINK_IsHalted()
T43F0 000:463.329 - 0.595ms returns FALSE
T43F0 000:463.343 JLINK_HasError()
T43F0 000:464.760 JLINK_IsHalted()
T43F0 000:465.279 - 0.518ms returns FALSE
T43F0 000:465.293 JLINK_HasError()
T43F0 000:469.674 JLINK_IsHalted()
T43F0 000:470.250 - 0.575ms returns FALSE
T43F0 000:470.282 JLINK_HasError()
T43F0 000:471.680 JLINK_IsHalted()
T43F0 000:472.214 - 0.535ms returns FALSE
T43F0 000:472.225 JLINK_HasError()
T43F0 000:473.654 JLINK_IsHalted()
T43F0 000:474.241 - 0.586ms returns FALSE
T43F0 000:474.252 JLINK_HasError()
T43F0 000:475.735 JLINK_IsHalted()
T43F0 000:476.365 - 0.629ms returns FALSE
T43F0 000:476.377 JLINK_HasError()
T43F0 000:477.742 JLINK_IsHalted()
T43F0 000:478.281 - 0.538ms returns FALSE
T43F0 000:478.293 JLINK_HasError()
T43F0 000:479.735 JLINK_IsHalted()
T43F0 000:484.414   CPU_ReadMem(2 bytes @ 0x20000000)
T43F0 000:484.942 - 5.206ms returns TRUE
T43F0 000:484.954 JLINK_ReadReg(R15 (PC))
T43F0 000:484.960 - 0.005ms returns 0x20000000
T43F0 000:484.965 JLINK_ClrBPEx(BPHandle = 0x00000009)
T43F0 000:484.969 - 0.004ms returns 0x00
T43F0 000:484.974 JLINK_ReadReg(R0)
T43F0 000:484.978 - 0.004ms returns 0x00000000
T43F0 000:485.364 JLINK_HasError()
T43F0 000:485.374 JLINK_WriteReg(R0, 0x08002000)
T43F0 000:485.379 - 0.005ms returns 0
T43F0 000:485.384 JLINK_WriteReg(R1, 0x00000800)
T43F0 000:485.388 - 0.004ms returns 0
T43F0 000:485.393 JLINK_WriteReg(R2, 0x000000FF)
T43F0 000:485.397 - 0.004ms returns 0
T43F0 000:485.401 JLINK_WriteReg(R3, 0x00000000)
T43F0 000:485.405 - 0.003ms returns 0
T43F0 000:485.410 JLINK_WriteReg(R4, 0x00000000)
T43F0 000:485.414 - 0.004ms returns 0
T43F0 000:485.418 JLINK_WriteReg(R5, 0x00000000)
T43F0 000:485.422 - 0.003ms returns 0
T43F0 000:485.427 JLINK_WriteReg(R6, 0x00000000)
T43F0 000:485.430 - 0.003ms returns 0
T43F0 000:485.435 JLINK_WriteReg(R7, 0x00000000)
T43F0 000:485.439 - 0.003ms returns 0
T43F0 000:485.443 JLINK_WriteReg(R8, 0x00000000)
T43F0 000:485.447 - 0.004ms returns 0
T43F0 000:485.452 JLINK_WriteReg(R9, 0x20000290)
T43F0 000:485.456 - 0.004ms returns 0
T43F0 000:485.460 JLINK_WriteReg(R10, 0x00000000)
T43F0 000:485.464 - 0.004ms returns 0
T43F0 000:485.469 JLINK_WriteReg(R11, 0x00000000)
T43F0 000:485.473 - 0.003ms returns 0
T43F0 000:485.477 JLINK_WriteReg(R12, 0x00000000)
T43F0 000:485.481 - 0.004ms returns 0
T43F0 000:485.486 JLINK_WriteReg(R13 (SP), 0x20008000)
T43F0 000:485.490 - 0.004ms returns 0
T43F0 000:485.495 JLINK_WriteReg(R14, 0x20000001)
T43F0 000:485.499 - 0.004ms returns 0
T43F0 000:485.504 JLINK_WriteReg(R15 (PC), 0x20000020)
T43F0 000:485.508 - 0.004ms returns 0
T43F0 000:485.518 JLINK_WriteReg(XPSR, 0x01000000)
T43F0 000:485.522 - 0.004ms returns 0
T43F0 000:485.527 JLINK_WriteReg(MSP, 0x20008000)
T43F0 000:485.531 - 0.004ms returns 0
T43F0 000:485.535 JLINK_WriteReg(PSP, 0x20008000)
T43F0 000:485.539 - 0.004ms returns 0
T43F0 000:485.544 JLINK_WriteReg(CFBP, 0x00000000)
T43F0 000:485.548 - 0.003ms returns 0
T43F0 000:485.553 JLINK_SetBPEx(Addr = 0x20000000, Type = 0xFFFFFFF2)
T43F0 000:485.557 - 0.005ms returns 0x0000000A
T43F0 000:485.562 JLINK_Go()
T43F0 000:485.573   CPU_ReadMem(4 bytes @ 0xE0001000)
T43F0 000:490.602 - 5.039ms 
T43F0 000:490.616 JLINK_IsHalted()
T43F0 000:495.250   CPU_ReadMem(2 bytes @ 0x20000000)
T43F0 000:495.712 - 5.095ms returns TRUE
T43F0 000:495.730 JLINK_ReadReg(R15 (PC))
T43F0 000:495.736 - 0.005ms returns 0x20000000
T43F0 000:495.742 JLINK_ClrBPEx(BPHandle = 0x0000000A)
T43F0 000:495.747 - 0.004ms returns 0x00
T43F0 000:495.822 JLINK_ReadReg(R0)
T43F0 000:495.834 - 0.011ms returns 0x00000001
T43F0 000:495.840 JLINK_HasError()
T43F0 000:495.846 JLINK_WriteReg(R0, 0x08002000)
T43F0 000:495.851 - 0.004ms returns 0
T43F0 000:495.855 JLINK_WriteReg(R1, 0x00000800)
T43F0 000:495.859 - 0.004ms returns 0
T43F0 000:495.864 JLINK_WriteReg(R2, 0x000000FF)
T43F0 000:495.868 - 0.004ms returns 0
T43F0 000:495.873 JLINK_WriteReg(R3, 0x00000000)
T43F0 000:495.877 - 0.004ms returns 0
T43F0 000:495.881 JLINK_WriteReg(R4, 0x00000000)
T43F0 000:495.885 - 0.004ms returns 0
T43F0 000:495.890 JLINK_WriteReg(R5, 0x00000000)
T43F0 000:495.893 - 0.003ms returns 0
T43F0 000:495.898 JLINK_WriteReg(R6, 0x00000000)
T43F0 000:495.902 - 0.003ms returns 0
T43F0 000:495.906 JLINK_WriteReg(R7, 0x00000000)
T43F0 000:495.910 - 0.004ms returns 0
T43F0 000:495.915 JLINK_WriteReg(R8, 0x00000000)
T43F0 000:495.919 - 0.003ms returns 0
T43F0 000:495.924 JLINK_WriteReg(R9, 0x20000290)
T43F0 000:495.928 - 0.004ms returns 0
T43F0 000:495.932 JLINK_WriteReg(R10, 0x00000000)
T43F0 000:495.936 - 0.004ms returns 0
T43F0 000:495.941 JLINK_WriteReg(R11, 0x00000000)
T43F0 000:495.945 - 0.003ms returns 0
T43F0 000:495.949 JLINK_WriteReg(R12, 0x00000000)
T43F0 000:495.953 - 0.004ms returns 0
T43F0 000:495.958 JLINK_WriteReg(R13 (SP), 0x20008000)
T43F0 000:495.962 - 0.004ms returns 0
T43F0 000:495.967 JLINK_WriteReg(R14, 0x20000001)
T43F0 000:495.971 - 0.004ms returns 0
T43F0 000:495.975 JLINK_WriteReg(R15 (PC), 0x200000B8)
T43F0 000:495.979 - 0.004ms returns 0
T43F0 000:495.984 JLINK_WriteReg(XPSR, 0x01000000)
T43F0 000:495.988 - 0.004ms returns 0
T43F0 000:495.992 JLINK_WriteReg(MSP, 0x20008000)
T43F0 000:495.996 - 0.004ms returns 0
T43F0 000:496.001 JLINK_WriteReg(PSP, 0x20008000)
T43F0 000:496.005 - 0.004ms returns 0
T43F0 000:496.009 JLINK_WriteReg(CFBP, 0x00000000)
T43F0 000:496.013 - 0.003ms returns 0
T43F0 000:496.018 JLINK_SetBPEx(Addr = 0x20000000, Type = 0xFFFFFFF2)
T43F0 000:496.023 - 0.005ms returns 0x0000000B
T43F0 000:496.028 JLINK_Go()
T43F0 000:496.039   CPU_ReadMem(4 bytes @ 0xE0001000)
T43F0 000:501.023 - 4.994ms 
T43F0 000:501.040 JLINK_IsHalted()
T43F0 000:501.657 - 0.617ms returns FALSE
T43F0 000:501.669 JLINK_HasError()
T43F0 000:504.736 JLINK_IsHalted()
T43F0 000:505.226 - 0.490ms returns FALSE
T43F0 000:505.238 JLINK_HasError()
T43F0 000:507.738 JLINK_IsHalted()
T43F0 000:508.205 - 0.466ms returns FALSE
T43F0 000:508.218 JLINK_HasError()
T43F0 000:509.742 JLINK_IsHalted()
T43F0 000:510.353 - 0.611ms returns FALSE
T43F0 000:510.365 JLINK_HasError()
T43F0 000:511.655 JLINK_IsHalted()
T43F0 000:512.154 - 0.498ms returns FALSE
T43F0 000:512.166 JLINK_HasError()
T43F0 000:513.742 JLINK_IsHalted()
T43F0 000:514.351 - 0.608ms returns FALSE
T43F0 000:514.362 JLINK_HasError()
T43F0 000:517.738 JLINK_IsHalted()
T43F0 000:518.331 - 0.593ms returns FALSE
T43F0 000:518.343 JLINK_HasError()
T43F0 000:519.735 JLINK_IsHalted()
T43F0 000:520.300 - 0.564ms returns FALSE
T43F0 000:520.311 JLINK_HasError()
T43F0 000:521.661 JLINK_IsHalted()
T43F0 000:522.133 - 0.471ms returns FALSE
T43F0 000:522.148 JLINK_HasError()
T43F0 000:525.680 JLINK_IsHalted()
T43F0 000:530.437   CPU_ReadMem(2 bytes @ 0x20000000)
T43F0 000:531.051 - 5.370ms returns TRUE
T43F0 000:531.063 JLINK_ReadReg(R15 (PC))
T43F0 000:531.069 - 0.005ms returns 0x20000000
T43F0 000:531.074 JLINK_ClrBPEx(BPHandle = 0x0000000B)
T43F0 000:531.078 - 0.004ms returns 0x00
T43F0 000:531.083 JLINK_ReadReg(R0)
T43F0 000:531.087 - 0.004ms returns 0x00000000
T43F0 000:531.470 JLINK_HasError()
T43F0 000:531.480 JLINK_WriteReg(R0, 0x08002800)
T43F0 000:531.485 - 0.005ms returns 0
T43F0 000:531.490 JLINK_WriteReg(R1, 0x00000800)
T43F0 000:531.494 - 0.004ms returns 0
T43F0 000:531.499 JLINK_WriteReg(R2, 0x000000FF)
T43F0 000:531.503 - 0.004ms returns 0
T43F0 000:531.507 JLINK_WriteReg(R3, 0x00000000)
T43F0 000:531.511 - 0.004ms returns 0
T43F0 000:531.516 JLINK_WriteReg(R4, 0x00000000)
T43F0 000:531.520 - 0.004ms returns 0
T43F0 000:531.524 JLINK_WriteReg(R5, 0x00000000)
T43F0 000:531.528 - 0.003ms returns 0
T43F0 000:531.533 JLINK_WriteReg(R6, 0x00000000)
T43F0 000:531.537 - 0.004ms returns 0
T43F0 000:531.541 JLINK_WriteReg(R7, 0x00000000)
T43F0 000:531.545 - 0.004ms returns 0
T43F0 000:531.550 JLINK_WriteReg(R8, 0x00000000)
T43F0 000:531.554 - 0.004ms returns 0
T43F0 000:531.558 JLINK_WriteReg(R9, 0x20000290)
T43F0 000:531.562 - 0.004ms returns 0
T43F0 000:531.567 JLINK_WriteReg(R10, 0x00000000)
T43F0 000:531.571 - 0.004ms returns 0
T43F0 000:531.576 JLINK_WriteReg(R11, 0x00000000)
T43F0 000:531.579 - 0.004ms returns 0
T43F0 000:531.584 JLINK_WriteReg(R12, 0x00000000)
T43F0 000:531.588 - 0.003ms returns 0
T43F0 000:531.593 JLINK_WriteReg(R13 (SP), 0x20008000)
T43F0 000:531.597 - 0.004ms returns 0
T43F0 000:531.602 JLINK_WriteReg(R14, 0x20000001)
T43F0 000:531.606 - 0.004ms returns 0
T43F0 000:531.610 JLINK_WriteReg(R15 (PC), 0x20000020)
T43F0 000:531.614 - 0.004ms returns 0
T43F0 000:531.619 JLINK_WriteReg(XPSR, 0x01000000)
T43F0 000:531.623 - 0.004ms returns 0
T43F0 000:531.627 JLINK_WriteReg(MSP, 0x20008000)
T43F0 000:531.631 - 0.004ms returns 0
T43F0 000:531.636 JLINK_WriteReg(PSP, 0x20008000)
T43F0 000:531.643 - 0.007ms returns 0
T43F0 000:531.648 JLINK_WriteReg(CFBP, 0x00000000)
T43F0 000:531.652 - 0.004ms returns 0
T43F0 000:531.657 JLINK_SetBPEx(Addr = 0x20000000, Type = 0xFFFFFFF2)
T43F0 000:531.662 - 0.005ms returns 0x0000000C
T43F0 000:531.666 JLINK_Go()
T43F0 000:531.677   CPU_ReadMem(4 bytes @ 0xE0001000)
T43F0 000:536.818 - 5.150ms 
T43F0 000:536.830 JLINK_IsHalted()
T43F0 000:541.563   CPU_ReadMem(2 bytes @ 0x20000000)
T43F0 000:542.173 - 5.342ms returns TRUE
T43F0 000:542.186 JLINK_ReadReg(R15 (PC))
T43F0 000:542.191 - 0.005ms returns 0x20000000
T43F0 000:542.197 JLINK_ClrBPEx(BPHandle = 0x0000000C)
T43F0 000:542.201 - 0.004ms returns 0x00
T43F0 000:542.206 JLINK_ReadReg(R0)
T43F0 000:542.211 - 0.004ms returns 0x00000001
T43F0 000:542.216 JLINK_HasError()
T43F0 000:542.221 JLINK_WriteReg(R0, 0x08002800)
T43F0 000:542.226 - 0.005ms returns 0
T43F0 000:542.231 JLINK_WriteReg(R1, 0x00000800)
T43F0 000:542.236 - 0.004ms returns 0
T43F0 000:542.241 JLINK_WriteReg(R2, 0x000000FF)
T43F0 000:542.245 - 0.004ms returns 0
T43F0 000:542.250 JLINK_WriteReg(R3, 0x00000000)
T43F0 000:542.254 - 0.004ms returns 0
T43F0 000:542.259 JLINK_WriteReg(R4, 0x00000000)
T43F0 000:542.263 - 0.004ms returns 0
T43F0 000:542.268 JLINK_WriteReg(R5, 0x00000000)
T43F0 000:542.273 - 0.004ms returns 0
T43F0 000:542.277 JLINK_WriteReg(R6, 0x00000000)
T43F0 000:542.282 - 0.004ms returns 0
T43F0 000:542.287 JLINK_WriteReg(R7, 0x00000000)
T43F0 000:542.291 - 0.004ms returns 0
T43F0 000:542.296 JLINK_WriteReg(R8, 0x00000000)
T43F0 000:542.300 - 0.004ms returns 0
T43F0 000:542.305 JLINK_WriteReg(R9, 0x20000290)
T43F0 000:542.309 - 0.004ms returns 0
T43F0 000:542.314 JLINK_WriteReg(R10, 0x00000000)
T43F0 000:542.318 - 0.004ms returns 0
T43F0 000:542.323 JLINK_WriteReg(R11, 0x00000000)
T43F0 000:542.328 - 0.004ms returns 0
T43F0 000:542.333 JLINK_WriteReg(R12, 0x00000000)
T43F0 000:542.337 - 0.004ms returns 0
T43F0 000:542.347 JLINK_WriteReg(R13 (SP), 0x20008000)
T43F0 000:542.352 - 0.004ms returns 0
T43F0 000:542.357 JLINK_WriteReg(R14, 0x20000001)
T43F0 000:542.361 - 0.004ms returns 0
T43F0 000:542.366 JLINK_WriteReg(R15 (PC), 0x200000B8)
T43F0 000:542.370 - 0.004ms returns 0
T43F0 000:542.375 JLINK_WriteReg(XPSR, 0x01000000)
T43F0 000:542.380 - 0.004ms returns 0
T43F0 000:542.385 JLINK_WriteReg(MSP, 0x20008000)
T43F0 000:542.389 - 0.004ms returns 0
T43F0 000:542.394 JLINK_WriteReg(PSP, 0x20008000)
T43F0 000:542.398 - 0.004ms returns 0
T43F0 000:542.403 JLINK_WriteReg(CFBP, 0x00000000)
T43F0 000:542.407 - 0.004ms returns 0
T43F0 000:542.413 JLINK_SetBPEx(Addr = 0x20000000, Type = 0xFFFFFFF2)
T43F0 000:542.418 - 0.005ms returns 0x0000000D
T43F0 000:542.422 JLINK_Go()
T43F0 000:542.433   CPU_ReadMem(4 bytes @ 0xE0001000)
T43F0 000:547.394 - 4.970ms 
T43F0 000:547.420 JLINK_IsHalted()
T43F0 000:548.018 - 0.597ms returns FALSE
T43F0 000:548.036 JLINK_HasError()
T43F0 000:550.737 JLINK_IsHalted()
T43F0 000:551.291 - 0.553ms returns FALSE
T43F0 000:551.303 JLINK_HasError()
T43F0 000:552.740 JLINK_IsHalted()
T43F0 000:553.295 - 0.554ms returns FALSE
T43F0 000:553.306 JLINK_HasError()
T43F0 000:554.738 JLINK_IsHalted()
T43F0 000:555.333 - 0.594ms returns FALSE
T43F0 000:555.345 JLINK_HasError()
T43F0 000:556.666 JLINK_IsHalted()
T43F0 000:557.255 - 0.588ms returns FALSE
T43F0 000:557.266 JLINK_HasError()
T43F0 000:558.744 JLINK_IsHalted()
T43F0 000:559.368 - 0.624ms returns FALSE
T43F0 000:559.380 JLINK_HasError()
T43F0 000:560.674 JLINK_IsHalted()
T43F0 000:561.209 - 0.533ms returns FALSE
T43F0 000:561.220 JLINK_HasError()
T43F0 000:562.745 JLINK_IsHalted()
T43F0 000:563.401 - 0.655ms returns FALSE
T43F0 000:563.412 JLINK_HasError()
T43F0 000:564.738 JLINK_IsHalted()
T43F0 000:565.334 - 0.595ms returns FALSE
T43F0 000:565.346 JLINK_HasError()
